# HZ S  RI R 5.000000e+01
0.000000000000000e+00 8.919722497522375e-03 -0.000000000000000e+00 9.910802775024780e-01 -0.000000000000000e+00 9.910802775024780e-01 -0.000000000000000e+00 8.919722497522486e-03 -0.000000000000000e+00
2.004008016032064e+07 3.072193446418403e-05 -9.360419918535497e-02 9.822080745845637e-01 -9.415131986018371e-02 9.822080745845636e-01 -9.415131986018371e-02 6.677594213122529e-05 -9.248442164293812e-02
4.008016032064128e+07 -2.571553457643549e-02 -1.823393726156663e-01 9.565103719714504e-01 -1.834434362676273e-01 9.565103719714501e-01 -1.834434362676272e-01 -2.557499203267766e-02 -1.801192474903470e-01
6.012024048096192e+07 -6.578536895291609e-02 -2.621422479399377e-01 9.165157870336013e-01 -2.638212902254321e-01 9.165157870336014e-01 -2.638212902254322e-01 -6.548201191362568e-02 -2.588574203817853e-01
8.016032064128256e+07 -1.166177354101884e-01 -3.302963722798915e-01 8.657782524714346e-01 -3.325739528615859e-01 8.657782524714347e-01 -3.325739528615859e-01 -1.161074452962624e-01 -3.259933291332471e-01
1.002004008016032e+08 -1.743323053643905e-01 -3.855830565937966e-01 8.081703453696405e-01 -3.884852684190225e-01 8.081703453696402e-01 -3.884852684190224e-01 -1.735864446921631e-01 -3.803131506696091e-01
1.202404809619238e+08 -2.353299295556422e-01 -4.280916696897099e-01 7.472840241214558e-01 -4.316445271326895e-01 7.472840241214559e-01 -4.316445271326895e-01 -2.343342199457860e-01 -4.219059009231038e-01
1.402805611222445e+08 -2.966614783102687e-01 -4.588425845009995e-01 6.860625246921661e-01 -4.630701644797917e-01 6.860625246921661e-01 -4.630701644797918e-01 -2.954134069083937e-01 -4.517878854684988e-01
1.603206412825651e+08 -3.561599471332769e-01 -4.793799466586525e-01 6.266685188210961e-01 -4.843033429882287e-01 6.266685188210962e-01 -4.843033429882290e-01 -3.546656459590506e-01 -4.714970928571706e-01
1.803607214428858e+08 -4.124015771500156e-01 -4.914350010692491e-01 5.705229159369670e-01 -4.970719511551531e-01 5.705229159369671e-01 -4.970719511551533e-01 -4.106728575661648e-01 -4.827578644466371e-01
2.004008016032064e+08 -4.645771429605407e-01 -4.966964141473638e-01 5.184333182749316e-01 -5.030613843628665e-01 5.184333182749317e-01 -5.030613843628664e-01 -4.626290436730061e-01 -4.872521329964589e-01
2.204408817635270e+08 -5.123371313434473e-01 -4.966807716756695e-01 4.707485330064975e-01 -5.037853013841520e-01 4.707485330064978e-01 -5.037853013841521e-01 -5.101860841021121e-01 -4.864904372141409e-01
2.404809619238477e+08 -5.556483691012970e-01 -4.926779183866183e-01 4.275016580895597e-01 -5.005310731596869e-01 4.275016580895599e-01 -5.005310731596871e-01 -5.533109364217362e-01 -4.817574794213541e-01
2.605210420841683e+08 -5.946781186043602e-01 -4.857438717866698e-01 3.885257552689205e-01 -4.943527108184085e-01 3.885257552689206e-01 -4.943527108184085e-01 -5.921701939207146e-01 -4.741050676524470e-01
2.805611222444890e+08 -6.297083378699009e-01 -4.767195604004640e-01 3.535394187753207e-01 -4.860895665500283e-01 3.535394187753207e-01 -4.860895665500282e-01 -6.270446877692057e-01 -4.643707791394204e-01
3.006012024048096e+08 -6.610763783117959e-01 -4.662607073105586e-01 3.222059591460744e-01 -4.763961575177922e-01 3.222059591460744e-01 -4.763961575177920e-01 -6.582704213694340e-01 -4.532077246253338e-01
3.206412825651302e+08 -6.891363138044627e-01 -4.548701448662537e-01 2.941719969287205e-01 -4.657744160861103e-01 2.941719969287204e-01 -4.657744160861105e-01 -6.862000537064344e-01 -4.411167341470255e-01
3.406813627254509e+08 -7.142352253468399e-01 -4.429280284762021e-01 2.690911306482215e-01 -4.546038433278188e-01 2.690911306482215e-01 -4.546038433278189e-01 -7.111792786293392e-01 -4.284764502838244e-01
3.607214428857715e+08 -7.366997610032784e-01 -4.307180165160709e-01 2.466373500147913e-01 -4.431676367022946e-01 2.466373500147913e-01 -4.431676367022945e-01 -7.335334384134683e-01 -4.155694036156267e-01
3.807615230460922e+08 -7.568294494236226e-01 -4.184489422013642e-01 2.265117090376432e-01 -4.316743187013982e-01 2.265117090376431e-01 -4.316743187013982e-01 -7.535608639562812e-01 -4.026035981322033e-01
4.008016032064128e+08 -7.748942677100760e-01 -4.062722336233246e-01 2.084447532863839e-01 -4.202751221496100e-01 2.084447532863839e-01 -4.202751221496097e-01 -7.715304523461233e-01 -3.897298617694718e-01
4.208416833667334e+08 -7.911347630664900e-01 -3.942956427771488e-01 1.921963984685556e-01 -4.090776918677403e-01 1.921963984685557e-01 -4.090776918677405e-01 -7.876817880242890e-01 -3.770555206644161e-01
4.408817635270541e+08 -8.057636096036108e-01 -3.825939202315044e-01 1.775543767160209e-01 -3.981567380779376e-01 1.775543767160209e-01 -3.981567380779376e-01 -8.022266933769732e-01 -3.646550312375369e-01
4.609218436873747e+08 -8.189678869036973e-01 -3.712170369832972e-01 1.643319625521589e-01 -3.875622418927771e-01 1.643319625521592e-01 -3.875622418927769e-01 -8.153514982068299e-01 -3.525781692467774e-01
4.809619238476954e+08 -8.309116400699038e-01 -3.601964748845437e-01 1.523654179352954e-01 -3.773257332342113e-01 1.523654179352953e-01 -3.773257332342114e-01 -8.272195895661126e-01 -3.408562951195728e-01
5.010020040080160e+08 -8.417384603549590e-01 -3.495500160658970e-01 1.415114167627897e-01 -3.674650707474478e-01 1.415114167627898e-01 -3.674650707474479e-01 -8.379739820868762e-01 -3.295071242702596e-01
5.210420841683366e+08 -8.515739405688968e-01 -3.392853761649902e-01 1.316445943448479e-01 -3.579880678294628e-01 1.316445943448480e-01 -3.579880678294627e-01 -8.477397635897129e-01 -3.185383458353333e-01
5.410821643286573e+08 -8.605279316145649e-01 -3.294029522638321e-01 1.226552953522255e-01 -3.488952351354633e-01 1.226552953522254e-01 -3.488952351354629e-01 -8.566263426135904e-01 -3.079503596499324e-01
5.611222444889779e+08 -8.686965705010432e-01 -3.198978956584865e-01 1.144475498284428e-01 -3.401818492669945e-01 1.144475498284426e-01 -3.401818492669944e-01 -8.647294683352101e-01 -2.977383407504367e-01
5.811623246492985e+08 -8.761640760622149e-01 -3.107616710564717e-01 1.069372810316899e-01 -3.318395089145157e-01 1.069372810316899e-01 -3.318395089145158e-01 -8.721330191201955e-01 -2.878937923539055e-01
6.012024048096192e+08 -8.830043230148745e-01 -3.019832257842782e-01 1.000507344932276e-01 -3.238573017901150e-01 1.000507344932275e-01 -3.238573017901151e-01 -8.789105702980434e-01 -2.784057104036865e-01
6.212424849699398e+08 -8.892822122786810e-01 -2.935498631815527e-01 9.372311040572100e-02 -3.162226763389203e-01 9.372311040572112e-02 -3.162226763389203e-01 -8.851267590116511e-01 -2.692614534820014e-01
6.412825651302605e+08 -8.950548584560711e-01 -2.854478917978709e-01 8.789737848506853e-02 -3.089220897021840e-01 8.789737848506862e-02 -3.089220897021841e-01 -8.908384669561396e-01 -2.604473894197079e-01
6.613226452905811e+08 -9.003726158218202e-01 -2.776631047912981e-01 8.252325399861721e-02 -3.019414862226866e-01 8.252325399861726e-02 -3.019414862226866e-01 -8.960958422714894e-01 -2.519493727854055e-01
6.813627254509017e+08 -9.052799632219510e-01 -2.701811308326130e-01 7.755631460074551e-02 -2.952666477139172e-01 7.755631460074541e-02 -2.952666477139171e-01 -9.009431809072819e-01 -2.437530943929647e-01
7.014028056112224e+08 -9.098162666231471e-01 -2.629876878770019e-01 7.295723927201919e-02 -2.888834467922954e-01 7.295723927201947e-02 -2.888834467922953e-01 -9.054196861259292e-01 -2.358443340641729e-01
7.214428857715430e+08 -9.140164361047878e-01 -2.560687636231361e-01 6.869115260326951e-02 -2.827780270448518e-01 6.869115260326952e-02 -2.827780270448519e-01 -9.095601228695188e-01 -2.282091403713749e-01
7.414829659318637e+08 -9.179114920902068e-01 -2.494107407588828e-01 6.472705965747860e-02 -2.769369280955564e-01 6.472705965747860e-02 -2.769369280955565e-01 -9.133953817278150e-01 -2.208339553871559e-01
7.615230460921843e+08 -9.215290537068878e-01 -2.430004807517988e-01 6.103735854541955e-02 -2.713471693010497e-01 6.103735854541958e-02 -2.713471693010498e-01 -9.169529653457145e-01 -2.137056981443277e-01
7.815631262525049e+08 -9.248937604153002e-01 -2.368253766457831e-01 5.759741959751911e-02 -2.659963025163542e-01 5.759741959751907e-02 -2.659963025163541e-01 -9.202574083654045e-01 -2.068118172258625e-01
8.016032064128256e+08 -9.280276364807714e-01 -2.308733828191094e-01 5.438522157659411e-02 -2.608724418699809e-01 5.438522157659398e-02 -2.608724418699808e-01 -9.233306404394055e-01 -2.001403204082674e-01
8.216432865731462e+08 -9.309504064865703e-01 -2.251330277518082e-01 5.138103674955857e-02 -2.559642765844221e-01 5.138103674955874e-02 -2.559642765844221e-01 -9.261923004799769e-01 -1.936797873822378e-01
8.416833667334669e+08 -9.336797688907434e-01 -2.195934143972833e-01 4.856715782947303e-02 -2.512610714278303e-01 4.856715782947307e-02 -2.512610714278302e-01 -9.288600091194585e-01 -1.874193701271571e-01
8.617234468937875e+08 -9.362316335989959e-01 -2.142442116447821e-01 4.592766082746044e-02 -2.467526582766404e-01 4.592766082746036e-02 -2.467526582766405e-01 -9.313496053300274e-01 -1.813487844121575e-01
8.817635270541081e+08 -9.386203286434140e-01 -2.090756395132701e-01 4.344819873476757e-02 -2.424294214245192e-01 4.344819873476735e-02 -2.424294214245191e-01 -9.336753522723373e-01 -1.754582950537606e-01
9.018036072144288e+08 -9.408587803038704e-01 -2.040784500708580e-01 4.111582170668242e-02 -2.382822786279059e-01 4.111582170668249e-02 -2.382822786279059e-01 -9.358501166925747e-01 -1.697386969163061e-01
9.218436873747494e+08 -9.429586703683150e-01 -1.992439055798124e-01 3.891882005937044e-02 -2.343026593853034e-01 3.891882005937042e-02 -2.343026593853033e-01 -9.378855255493911e-01 -1.641812931492183e-01
9.418837675350701e+08 -9.449305736840236e-01 -1.945637549894049e-01 3.684658693374977e-02 -2.304824815704390e-01 3.684658693374976e-02 -2.304824815704390e-01 -9.397921030101747e-01 -1.587778717788996e-01
9.619238476953907e+08 -9.467840786901205e-01 -1.900302096100591e-01 3.488949794131693e-02 -2.268141272512177e-01 3.488949794131690e-02 -2.268141272512177e-01 -9.415793904962666e-01 -1.535206814853960e-01
9.819639278557113e+08 -9.485278932300970e-01 -1.856359185816413e-01 3.303880549768094e-02 -2.232904183062114e-01 3.303880549768090e-02 -2.232904183062113e-01 -9.432560520666342e-01 -1.484024071742444e-01
1.002004008016032e+09 -9.501699376108115e-01 -1.813739445804045e-01 3.128654588109603e-02 -2.199045922824393e-01 3.128654588109603e-02 -2.199045922824394e-01 -9.448299670986506e-01 -1.434161457862498e-01
1.022044088176353e+09 -9.517174265925825e-01 -1.772377400808914e-01 2.962545733460680e-02 -2.166502788102554e-01 2.962545733460664e-02 -2.166502788102553e-01 -9.463083119438549e-01 -1.385553826602484e-01
1.042084168336673e+09 -9.531769417555864e-01 -1.732211243917487e-01 2.804890776931963e-02 -2.135214767939876e-01 2.804890776931956e-02 -2.135214767939876e-01 -9.476976319981243e-01 -1.338139686669461e-01
1.062124248496994e+09 -9.545544954843215e-01 -1.693182616107289e-01 2.655083082936165e-02 -2.105125325234800e-01 2.655083082936149e-02 -2.105125325234800e-01 -9.490039054230623e-01 -1.291860982585458e-01
1.082164328657315e+09 -9.558555876387653e-01 -1.655236395887209e-01 2.512566925185538e-02 -2.076181187963455e-01 2.512566925185544e-02 -2.076181187963455e-01 -9.502325995829536e-01 -1.246662885236574e-01
1.102204408817635e+09 -9.570852558333849e-01 -1.618320499512065e-01 2.376832460241252e-02 -2.048332150993938e-01 2.376832460241252e-02 -2.048332150993937e-01 -9.513887211147430e-01 -1.202493592957083e-01
1.122244488977956e+09 -9.582481201193159e-01 -1.582385691948447e-01 2.247411259221571e-02 -2.021530888670744e-01 2.247411259221577e-02 -2.021530888670744e-01 -9.524768604231976e-01 -1.159304143325042e-01
1.142284569138277e+09 -9.593484227575773e-01 -1.547385408544489e-01 2.123872329000171e-02 -1.995732778123836e-01 2.123872329000165e-02 -1.995732778123837e-01 -9.535012312863349e-01 -1.117048235622412e-01
1.162324649298597e+09 -9.603900636792095e-01 -1.513275587194878e-01 2.005818563401878e-02 -1.970895733095953e-01 2.005818563401884e-02 -1.970895733095953e-01 -9.544657061646261e-01 -1.075682063751952e-01
1.182364729458918e+09 -9.613766321494446e-01 -1.480014510679313e-01 1.892883572766444e-02 -1.946980047968935e-01 1.892883572766446e-02 -1.946980047968935e-01 -9.553738477290037e-01 -1.035164159290634e-01
1.202404809619238e+09 -9.623114350853832e-01 -1.447562658776144e-01 1.784728846996867e-02 -1.923948251593653e-01 1.784728846996875e-02 -1.923948251593653e-01 -9.562289370553382e-01 -9.954552442830540e-02
1.222444889779559e+09 -9.631975224185407e-01 -1.415882569704233e-01 1.681041213009540e-02 -1.901764970479571e-01 1.681041213009549e-02 -1.901764970479570e-01 -9.570339988751742e-01 -9.565180933298768e-02
1.242484969939880e+09 -9.640377098435653e-01 -1.384938710418144e-01 1.581530552495790e-02 -1.880396800872237e-01 1.581530552495791e-02 -1.880396800872237e-01 -9.577918242226365e-01 -9.183174044985436e-02
1.262525050100200e+09 -9.648345992512743e-01 -1.354697355269476e-01 1.485927750210743e-02 -1.859812189234813e-01 1.485927750210736e-02 -1.859812189234814e-01 -9.585049907744696e-01 -8.808196785712297e-02
1.282565130260521e+09 -9.655905971068849e-01 -1.325126472546233e-01 1.393982846723610e-02 -1.839981320648938e-01 1.393982846723618e-02 -1.839981320648938e-01 -9.591758811429985e-01 -8.439931061441286e-02
1.302605210420842e+09 -9.663079310020388e-01 -1.296195618409478e-01 1.305463372781362e-02 -1.820876014657712e-01 1.305463372781379e-02 -1.820876014657712e-01 -9.598066993497053e-01 -8.078074620995081e-02
1.322645290581162e+09 -9.669886645812910e-01 -1.267875837759851e-01 1.220152845224835e-02 -1.802469628086952e-01 1.220152845224831e-02 -1.802469628086952e-01 -9.603994856792536e-01 -7.722340069852325e-02
1.342685370741483e+09 -9.676347110194479e-01 -1.240139571583756e-01 1.137849406816366e-02 -1.784736964398234e-01 1.137849406816360e-02 -1.784736964398233e-01 -9.609561300896293e-01 -7.372453948536924e-02
1.362725450901803e+09 -9.682478452050556e-01 -1.212960570348992e-01 1.058364594440626e-02 -1.767654189147328e-01 1.058364594440619e-02 -1.767654189147327e-01 -9.614783843330559e-01 -7.028155871318778e-02
1.382765531062124e+09 -9.688297147669707e-01 -1.186313813041075e-01 9.815222219712576e-03 -1.751198751143078e-01 9.815222219712538e-03 -1.751198751143078e-01 -9.619678729240435e-01 -6.689197721158673e-02
1.402805611222445e+09 -9.693818500649105e-01 -1.160175431453744e-01 9.071573656926657e-03 -1.735349308924327e-01 9.071573656926679e-03 -1.735349308924326e-01 -9.624261030749660e-01 -6.355342897050843e-02
1.422845691382765e+09 -9.699056732508970e-01 -1.134522639369611e-01 8.351154415600595e-03 -1.720085662194850e-01 8.351154415600637e-03 -1.720085662194850e-01 -9.628544737056305e-01 -6.026365610141265e-02
1.442885771543086e+09 -9.704025064962547e-01 -1.109333666289116e-01 7.652513647998196e-03 -1.705388687878755e-01 7.652513647998349e-03 -1.705388687878755e-01 -9.632542836210830e-01 -5.702050225220658e-02
1.462925851703407e+09 -9.708735794680894e-01 -1.084587695387552e-01 6.974287834208999e-03 -1.691240280480432e-01 6.974287834209059e-03 -1.691240280480431e-01 -9.636267389412327e-01 -5.382190644407146e-02
1.482965931863727e+09 -9.713200361297630e-01 -1.060264805400814e-01 6.315193781430313e-03 -1.677623296454235e-01 6.315193781430417e-03 -1.677623296454235e-01 -9.639729598564667e-01 -5.066589730041487e-02
1.503006012024048e+09 -9.717429409315951e-01 -1.036345916160516e-01 5.674022220717204e-03 -1.664521502309166e-01 5.674022220717223e-03 -1.664521502309166e-01 -9.642939867751967e-01 -4.755058764017017e-02
1.523046092184369e+09 -9.721432844507316e-01 -1.012812737518016e-01 5.049631941715154e-03 -1.651919526192914e-01 5.049631941715149e-03 -1.651919526192913e-01 -9.645907859220176e-01 -4.447416940955713e-02
1.543086172344689e+09 -9.725219885327073e-01 -9.896477214148447e-02 4.440944412277145e-03 -1.639802812717762e-01 4.440944412277159e-03 -1.639802812717762e-01 -9.648642544387497e-01 -4.143490892819907e-02
1.563126252505010e+09 -9.728799109815394e-01 -9.668340168738548e-02 3.846938835467963e-03 -1.628157580807831e-01 3.846938835468050e-03 -1.628157580807831e-01 -9.651152250349799e-01 -3.843114242718122e-02
1.583166332665330e+09 -9.732178498401785e-01 -9.443554277012109e-02 3.266647601431573e-03 -1.616970784363184e-01 3.266647601431583e-03 -1.616970784363184e-01 -9.653444702297412e-01 -3.546127185820535e-02
1.603206412825651e+09 -9.735365472987065e-01 -9.221963727040691e-02 2.699152095961892e-03 -1.606230075551227e-01 2.699152095961943e-03 -1.606230075551227e-01 -9.655527062214976e-01 -3.252376095446939e-02
1.623246492985972e+09 -9.738366932637121e-01 -9.003418482425665e-02 2.143578831514436e-03 -1.595923770549871e-01 2.143578831514392e-03 -1.595923770549872e-01 -9.657405964197339e-01 -2.961713152528105e-02
1.643286573146292e+09 -9.741189286187886e-01 -8.787773929474925e-02 1.599095869808172e-03 -1.586040817579925e-01 1.599095869808220e-03 -1.586040817579925e-01 -9.659087546678869e-01 -2.673995996768007e-02
1.663326653306613e+09 -9.743838482029673e-01 -8.574890544469278e-02 1.064909508232113e-03 -1.576570767076312e-01 1.064909508232015e-03 -1.576570767076311e-01 -9.660577481843182e-01 -2.389087397954531e-02
1.683366733466934e+09 -9.746320035311363e-01 -8.364633579560882e-02 5.402612049534351e-04 -1.567503743859012e-01 5.402612049535405e-04 -1.567503743859012e-01 -9.661881002452033e-01 -2.106854945975417e-02
1.703406813627254e+09 -9.748639052779970e-01 -8.156872765948324e-02 2.442472003568417e-05 -1.558830421175117e-01 2.442472003572060e-05 -1.558830421175116e-01 -9.663002926307758e-01 -1.827170758198518e-02
1.723446893787575e+09 -9.750800255449108e-01 -7.951482033067003e-02 -4.832965479995848e-04 -1.550541996493058e-01 -4.832965479996121e-04 -1.550541996493059e-01 -9.663947678541359e-01 -1.549911202970094e-02
1.743486973947896e+09 -9.752807999269827e-01 -7.748339242620218e-02 -9.835720488428391e-04 -1.542630168939187e-01 -9.835720488428068e-04 -1.542630168939187e-01 -9.664719311898485e-01 -1.274956638072083e-02
1.763527054108216e+09 -9.754666293959581e-01 -7.547325936357149e-02 -1.477046407282879e-03 -1.535087118275190e-01 -1.477046407282967e-03 -1.535087118275190e-01 -9.665321525177882e-01 -1.002191163059691e-02
1.783567134268537e+09 -9.756378820128915e-01 -7.348327096577416e-02 -1.964341605801979e-03 -1.527905485322643e-01 -1.964341605802056e-03 -1.527905485322643e-01 -9.665757679960726e-01 -7.315023844758742e-03
1.803607214428858e+09 -9.757948944831084e-01 -7.151230918410406e-02 -2.446059037037168e-03 -1.521078353748186e-01 -2.446059037037207e-03 -1.521078353748185e-01 -9.666030815754910e-01 -4.627811930073958e-03
1.823647294589178e+09 -9.759379735646679e-01 -6.955928592980180e-02 -2.922781439085748e-03 -1.514599233129517e-01 -2.922781439085753e-03 -1.514599233129517e-01 -9.666143663665212e-01 -1.959215517109866e-03
1.843687374749499e+09 -9.760673973403438e-01 -6.762314100624792e-02 -3.395074725576978e-03 -1.508462043228605e-01 -3.395074725576985e-03 -1.508462043228605e-01 -9.666098658688472e-01 6.917970550313901e-04
1.863727454909820e+09 -9.761834163620762e-01 -6.570284013391815e-02 -3.863489721505972e-03 -1.502661099404232e-01 -3.863489721505853e-03 -1.502661099404232e-01 -9.665897950722124e-01 3.326230658894824e-03
1.883767535070140e+09 -9.762862546758474e-01 -6.379737306080173e-02 -4.328563814994171e-03 -1.497191099101462e-01 -4.328563814994246e-03 -1.497191099101461e-01 -9.665543414364612e-01 5.945065210965415e-03
1.903807615230461e+09 -9.763761107340545e-01 -6.190575175144415e-02 -4.790822534417953e-03 -1.492047109360419e-01 -4.790822534417982e-03 -1.492047109360419e-01 -9.665036657577252e-01 8.549257422696400e-03
1.923847695390781e+09 -9.764531582016105e-01 -6.002700864817131e-02 -5.250781059701912e-03 -1.487224555291562e-01 -5.250781059701781e-03 -1.487224555291562e-01 -9.664379029268767e-01 1.113974247649050e-02
