# HZ S  RI R 1.000000e-01
0.000000000000000e+00 9.999999990000000e-01 0.000000000000000e+00 3.465483630000000e-11 0.000000000000000e+00 3.465483630000000e-11 0.000000000000000e+00 -3.547267910000000e-01 0.000000000000000e+00
1.000000000000000e+06 9.813259920000000e-01 -1.305671950000000e-01 -1.081980730000000e-02 1.884696680000000e-02 -1.081980730000000e-02 1.884696680000000e-02 -8.873471519999999e-02 4.111187490000000e-01
1.627250610000000e+06 9.409781800000000e-01 -2.218870670000000e-01 -1.942870900000000e-02 4.633473770000000e-02 -1.942870900000000e-02 4.633473770000000e-02 9.458684650000000e-02 5.247477540000000e-01
2.647944550000000e+06 7.755559580000000e-01 -3.737129210000000e-01 -3.801040570000000e-03 1.230596370000000e-01 -3.801040570000000e-03 1.230596370000000e-01 3.558678610000000e-01 5.635636280000000e-01
4.308869380000000e+06 2.340116770000000e-01 -1.510889560000000e-01 2.137669390000000e-01 1.573546960000000e-01 2.137669390000000e-01 1.573546960000000e-01 5.573059280000000e-01 4.716720800000000e-01
7.011610330000000e+06 6.314970820000000e-01 3.722836760000000e-01 1.753334450000000e-01 -9.251345410000000e-02 1.753334450000000e-01 -9.251345410000000e-02 7.254418030000001e-01 4.447958540000000e-01
1.140964720000000e+07 8.845926560000000e-01 2.576605860000000e-01 6.577021650000001e-02 -9.111131280000000e-02 6.577021650000001e-02 -9.111131280000000e-02 8.772008940000000e-01 3.279594870000000e-01
1.856635530000000e+07 9.564450990000000e-01 1.600255220000000e-01 2.666517310000000e-02 -6.246366130000000e-02 2.666517310000000e-02 -6.246366130000000e-02 9.465350310000000e-01 2.176501750000000e-01
3.021211300000000e+07 9.821318080000000e-01 9.952581060000000e-02 1.124218200000000e-02 -4.069847020000000e-02 1.124218200000000e-02 -4.069847020000000e-02 9.769346990000000e-01 1.393458980000000e-01
4.916267940000000e+07 9.923956440000000e-01 6.171986950000000e-02 4.791573240000000e-03 -2.592184800000000e-02 4.791573240000000e-03 -2.592184800000000e-02 9.901760220000000e-01 8.734863690000000e-02
8.000000000000000e+07 9.967062430000000e-01 3.788535360000000e-02 2.053086350000000e-03 -1.629627760000000e-02 2.053086350000000e-03 -1.629627760000000e-02 9.958193590000000e-01 5.382858530000000e-02
9.616326530000000e+07 9.975915210000000e-01 3.133979040000000e-02 1.491238340000000e-03 -1.364112780000000e-02 1.491238340000000e-03 -1.364112780000000e-02 9.969703690000000e-01 4.458408730000000e-02
1.123265310000000e+08 9.981483560000000e-01 2.660465220000000e-02 1.138218730000000e-03 -1.172826180000000e-02 1.138218730000000e-03 -1.172826180000000e-02 9.976902230000000e-01 3.789951870000000e-02
1.284897960000000e+08 9.985233680000000e-01 2.300259670000000e-02 9.005568600000000e-04 -1.028342080000000e-02 9.005568600000000e-04 -1.028342080000000e-02 9.981723980000000e-01 3.282219410000000e-02
1.446530610000000e+08 9.987889240000000e-01 2.015650980000000e-02 7.321518940000000e-04 -9.152503209999999e-03 7.321518940000000e-04 -9.152503209999999e-03 9.985121520000000e-01 2.881983830000000e-02
1.608163270000000e+08 9.989843000000000e-01 1.783951260000000e-02 6.080149300000000e-04 -8.242209540000000e-03 6.080149300000000e-04 -8.242209540000000e-03 9.987610220000001e-01 2.557175840000000e-02
1.769795920000000e+08 9.991324020000000e-01 1.590674050000000e-02 5.135926600000000e-04 -7.492694840000000e-03 5.135926600000000e-04 -7.492694840000000e-03 9.989489770000000e-01 2.287320410000000e-02
1.931428570000000e+08 9.992473580000000e-01 1.426118600000000e-02 4.399186610000000e-04 -6.863750520000000e-03 4.399186610000000e-04 -6.863750520000000e-03 9.990944600000000e-01 2.058728840000000e-02
2.093061220000000e+08 9.993382810000000e-01 1.283526590000000e-02 3.812131260000000e-04 -6.327297100000000e-03 3.812131260000000e-04 -6.327297100000000e-03 9.992093500000000e-01 1.861899240000000e-02
2.254693880000000e+08 9.994112640000000e-01 1.158025080000000e-02 3.336102040000000e-04 -5.863056780000000e-03 3.336102040000000e-04 -5.863056780000000e-03 9.993015990000000e-01 1.690026040000000e-02
2.416326530000000e+08 9.994704920000000e-01 1.045988090000000e-02 2.944478390000000e-04 -5.455929740000000e-03 2.944478390000000e-04 -5.455929740000000e-03 9.993766930000000e-01 1.538102860000000e-02
2.577959180000000e+08 9.995188940000000e-01 9.446324540000000e-03 2.618488280000000e-04 -5.094328390000000e-03 2.618488280000000e-04 -5.094328390000000e-03 9.994385210000000e-01 1.402359850000000e-02
2.739591840000000e+08 9.995585390000000e-01 8.517491980000000e-03 2.344704580000000e-04 -4.769068540000000e-03 2.344704580000000e-04 -4.769068540000000e-03 9.994899050000000e-01 1.279897910000000e-02
2.901224490000000e+08 9.995908630000000e-01 7.655140830000000e-03 2.113503750000000e-04 -4.472587800000000e-03 2.113503750000000e-04 -4.472587800000000e-03 9.995329230000000e-01 1.168442760000000e-02
3.062857140000000e+08 9.996168000000000e-01 6.843421390000000e-03 1.918126810000000e-04 -4.198347510000000e-03 1.918126810000000e-04 -4.198347510000000e-03 9.995691260000000e-01 1.066173880000000e-02
3.224489800000000e+08 9.996368270000000e-01 6.067603390000000e-03 1.754225640000000e-04 -3.940313390000000e-03 1.754225640000000e-04 -3.940313390000000e-03 9.995996750000000e-01 9.716004900000000e-03
3.386122450000000e+08 9.996509180000001e-01 5.312736330000000e-03 1.619828750000000e-04 -3.692415270000000e-03 1.619828750000000e-04 -3.692415270000000e-03 9.996254210000000e-01 8.834656210000000e-03
3.547755100000000e+08 9.996583560000000e-01 4.561907080000000e-03 1.515857680000000e-04 -3.447852480000000e-03 1.515857680000000e-04 -3.447852480000000e-03 9.996469410000000e-01 8.006631480000000e-03
3.709387760000000e+08 9.996572700000000e-01 3.793486720000000e-03 1.447768570000000e-04 -3.198005450000000e-03 1.447768570000000e-04 -3.198005450000000e-03 9.996645159999999e-01 7.221499890000000e-03
3.871020410000000e+08 9.996435090000000e-01 2.976036760000000e-03 1.429598730000000e-04 -2.930433250000000e-03 1.429598730000000e-04 -2.930433250000000e-03 9.996779870000000e-01 6.468198960000000e-03
4.032653060000000e+08 9.996077300000000e-01 2.057510080000000e-03 1.494705240000000e-04 -2.624653920000000e-03 1.494705240000000e-04 -2.624653920000000e-03 9.996861960000000e-01 5.732292640000000e-03
4.194285710000000e+08 9.995266430000000e-01 9.388626040000000e-04 1.725842400000000e-04 -2.242125180000000e-03 1.725842400000000e-04 -2.242125180000000e-03 9.996818490000000e-01 4.982202720000000e-03
4.355918370000000e+08 9.993308140000000e-01 -6.026992110000000e-04 2.399191410000000e-04 -1.690901530000000e-03 2.399191410000000e-04 -1.690901530000000e-03 9.996616350000000e-01 4.274024880000000e-03
4.517551020000000e+08 9.987353190000000e-01 -3.203671680000000e-03 4.586062080000000e-04 -7.273028240000001e-04 4.586062080000000e-04 -7.273028240000001e-04 9.995936680000000e-01 3.343613050000000e-03
4.679183670000000e+08 9.955484930000000e-01 -9.480675470000000e-03 1.676525620000000e-03 1.690309980000000e-03 1.676525620000000e-03 1.690309980000000e-03 9.991323290000000e-01 1.876866930000000e-03
4.840816330000000e+08 9.610673170000000e-01 7.435495800000000e-03 1.528152900000000e-02 -4.844571460000000e-03 1.528152900000000e-02 -4.844571460000000e-03 9.937675270000000e-01 3.885759050000000e-03
5.002448980000000e+08 9.957880540000000e-01 1.388290490000000e-02 1.687663370000000e-03 -7.600422230000000e-03 1.687663370000000e-03 -7.600422230000000e-03 9.990903130000000e-01 4.558756080000000e-03
5.164081630000000e+08 9.985991070000000e-01 8.390838200000000e-03 5.562832290000000e-04 -5.522628370000000e-03 5.562832290000000e-04 -5.522628370000000e-03 9.995457940000000e-01 3.292561740000000e-03
5.325714290000000e+08 9.992173850000000e-01 6.042587800000000e-03 3.000203420000000e-04 -4.669089030000000e-03 3.000203420000000e-04 -4.669089030000000e-03 9.996514280000000e-01 2.516857970000000e-03
5.487346940000000e+08 9.994499680000000e-01 4.667633100000000e-03 1.996497240000000e-04 -4.196809020000000e-03 1.996497240000000e-04 -4.196809020000000e-03 9.996934360000000e-01 1.902881880000000e-03
5.648979590000000e+08 9.995631300000000e-01 3.710487970000000e-03 1.480679790000000e-04 -3.889131870000000e-03 1.480679790000000e-04 -3.889131870000000e-03 9.997149160000000e-01 1.364893350000000e-03
5.810612240000000e+08 9.996270360000000e-01 2.971432850000000e-03 1.167916560000000e-04 -3.668053770000000e-03 1.167916560000000e-04 -3.668053770000000e-03 9.997274600000000e-01 8.713237970000000e-04
5.972244900000000e+08 9.996666990000000e-01 2.361493740000000e-03 9.557593610000000e-05 -3.498809610000000e-03 9.557593610000000e-05 -3.498809610000000e-03 9.997352890000000e-01 4.076021430000000e-04
6.133877550000000e+08 9.996928840000000e-01 1.834992340000000e-03 7.997051780000000e-05 -3.363556890000000e-03 7.997051780000000e-05 -3.363556890000000e-03 9.997402680000000e-01 -3.412971040000000e-05
6.295510200000000e+08 9.997108649999999e-01 1.365982510000000e-03 6.777228740000000e-05 -3.252172480000000e-03 6.777228740000000e-05 -3.252172480000000e-03 9.997433360000000e-01 -4.586253970000000e-04
6.457142860000000e+08 9.997234860000001e-01 9.385591150000000e-04 5.778089330000000e-05 -3.158464950000000e-03 5.778089330000000e-05 -3.158464950000000e-03 9.997450200000000e-01 -8.690260460000000e-04
6.618775510000000e+08 9.997323940000000e-01 5.423701490000000e-04 4.929083890000000e-05 -3.078419690000000e-03 4.929083890000000e-05 -3.078419690000000e-03 9.997456350000000e-01 -1.267556150000000e-03
6.780408160000000e+08 9.997386010000000e-01 1.703419650000000e-04 4.186107660000000e-05 -3.009309130000000e-03 4.186107660000000e-05 -3.009309130000000e-03 9.997453850000000e-01 -1.655879780000000e-03
6.942040820000000e+08 9.997427570000000e-01 -1.825590270000000e-04 3.520183330000000e-05 -2.949208150000000e-03 3.520183330000000e-05 -2.949208150000000e-03 9.997444049999999e-01 -2.035297200000000e-03
7.103673470000000e+08 9.997452980000000e-01 -5.200405780000000e-04 2.911475170000000e-05 -2.896714730000000e-03 2.911475170000000e-05 -2.896714730000000e-03 9.997427940000000e-01 -2.406860180000000e-03
7.265306120000000e+08 9.997465210000001e-01 -8.449168890000001e-04 2.345812640000000e-05 -2.850780750000000e-03 2.345812640000000e-05 -2.850780750000000e-03 9.997406210000001e-01 -2.771443430000000e-03
7.426938780000000e+08 9.997466390000000e-01 -1.159381060000000e-03 1.812773980000000e-05 -2.810605420000000e-03 1.812773980000000e-05 -2.810605420000000e-03 9.997379370000000e-01 -3.129790820000000e-03
7.588571430000000e+08 9.997458020000000e-01 -1.465183000000000e-03 1.304434820000000e-05 -2.775565850000000e-03 1.304434820000000e-05 -2.775565850000000e-03 9.997347830000000e-01 -3.482546550000000e-03
7.750204080000000e+08 9.997441220000000e-01 -1.763749080000000e-03 8.146481860000001e-06 -2.745170310000000e-03 8.146481860000001e-06 -2.745170310000000e-03 9.997311900000000e-01 -3.830276920000000e-03
7.911836730000000e+08 9.997416760000000e-01 -2.056264980000000e-03 3.382775590000000e-06 -2.719025960000000e-03 3.382775590000000e-06 -2.719025960000000e-03 9.997271800000000e-01 -4.173485960000000e-03
8.073469390000000e+08 9.997385250000000e-01 -2.343734370000000e-03 -1.287579030000000e-06 -2.696816210000000e-03 -1.287579030000000e-06 -2.696816210000000e-03 9.997227720000000e-01 -4.512627120000000e-03
8.235102040000000e+08 9.997347100000000e-01 -2.627021360000000e-03 -5.899010130000000e-06 -2.678284290000000e-03 -5.899010130000000e-06 -2.678284290000000e-03 9.997179810000000e-01 -4.848112100000000e-03
8.396734690000000e+08 9.997302610000000e-01 -2.906882020000000e-03 -1.048203500000000e-05 -2.663221250000000e-03 -1.048203500000000e-05 -2.663221250000000e-03 9.997128159999999e-01 -5.180317720000000e-03
8.558367350000000e+08 9.997251970000000e-01 -3.183988080000000e-03 -1.506370270000000e-05 -2.651457050000000e-03 -1.506370270000000e-05 -2.651457050000000e-03 9.997072860000000e-01 -5.509591350000000e-03
8.720000000000000e+08 9.997195280000000e-01 -3.458945220000000e-03 -1.966808010000000e-05 -2.642853800000000e-03 -1.966808010000000e-05 -2.642853800000000e-03 9.997013950000000e-01 -5.836255390000000e-03
8.881632650000000e+08 9.997132570000000e-01 -3.732307350000000e-03 -2.431740520000000e-05 -2.637300590000000e-03 -2.431740520000000e-05 -2.637300590000000e-03 9.996951460000000e-01 -6.160610880000000e-03
9.043265310000000e+08 9.997063810000000e-01 -4.004588070000000e-03 -2.903403150000000e-05 -2.634709560000000e-03 -2.903403150000000e-05 -2.634709560000000e-03 9.996885400000000e-01 -6.482940530000000e-03
9.204897960000000e+08 9.996988910000000e-01 -4.276270050000000e-03 -3.383664510000000e-05 -2.635012830000000e-03 -3.383664510000000e-05 -2.635012830000000e-03 9.996815770000000e-01 -6.803511400000000e-03
9.366530610000000e+08 9.996907730000000e-01 -4.547812800000000e-03 -3.874677260000000e-05 -2.638160000000000e-03 -3.874677260000000e-05 -2.638160000000000e-03 9.996742520000000e-01 -7.122576950000000e-03
9.528163270000000e+08 9.996820070000000e-01 -4.819659400000000e-03 -4.378321810000000e-05 -2.644116370000000e-03 -4.378321810000000e-05 -2.644116370000000e-03 9.996665600000000e-01 -7.440379200000000e-03
9.689795920000000e+08 9.996725670000000e-01 -5.092242390000000e-03 -4.896599610000000e-05 -2.652861430000000e-03 -4.896599610000000e-05 -2.652861430000000e-03 9.996584950000000e-01 -7.757150340000000e-03
9.851428570000000e+08 9.996624250000000e-01 -5.365989180000000e-03 -5.431501140000000e-05 -2.664387680000000e-03 -5.431501140000000e-05 -2.664387680000000e-03 9.996500490000000e-01 -8.073114320000000e-03
1.001306120000000e+09 9.996515440000000e-01 -5.641327090000000e-03 -5.984955010000000e-05 -2.678699740000000e-03 -5.984955010000000e-05 -2.678699740000000e-03 9.996412099999999e-01 -8.388488350000001e-03
1.017469390000000e+09 9.996398810000000e-01 -5.918688580000000e-03 -6.559093300000000e-05 -2.695813520000000e-03 -6.559093300000000e-05 -2.695813520000000e-03 9.996319670000000e-01 -8.703484160000000e-03
1.033632650000000e+09 9.996273870000000e-01 -6.198517070000000e-03 -7.156030780000001e-05 -2.715755410000000e-03 -7.156030780000001e-05 -2.715755410000000e-03 9.996223020000000e-01 -9.018309360000001e-03
1.049795920000000e+09 9.996140010000000e-01 -6.481276000000000e-03 -7.777691840000001e-05 -2.738560760000000e-03 -7.777691840000001e-05 -2.738560760000000e-03 9.996121940000000e-01 -9.333168820000000e-03
1.065959180000000e+09 9.995996350000000e-01 -6.767476040000000e-03 -8.424453559999999e-05 -2.764268960000000e-03 -8.424453559999999e-05 -2.764268960000000e-03 9.996016160000000e-01 -9.648265300000000e-03
1.082122450000000e+09 9.995836470000000e-01 -7.057477550000000e-03 -9.078860180000000e-05 -2.793115580000000e-03 -9.078860180000000e-05 -2.793115580000000e-03 9.995904930000000e-01 -9.963686680000000e-03
1.098285710000000e+09 9.995678090000000e-01 -7.351460950000000e-03 -9.826385990000001e-05 -2.824918430000000e-03 -9.826385990000001e-05 -2.824918430000000e-03 9.995790810000000e-01 -1.027991460000000e-02
1.114448980000000e+09 9.995502000000001e-01 -7.650968320000000e-03 -1.057477790000000e-04 -2.859749880000000e-03 -1.057477790000000e-04 -2.859749880000000e-03 9.995669550000000e-01 -1.059695670000000e-02
1.130612240000000e+09 9.995312220000000e-01 -7.956001020000001e-03 -1.136083880000000e-04 -2.897841250000000e-03 -1.136083880000000e-04 -2.897841250000000e-03 9.995542360000000e-01 -1.091503800000000e-02
1.146775510000000e+09 9.995107850000000e-01 -8.267282779999999e-03 -1.218775860000000e-04 -2.939266830000000e-03 -1.218775860000000e-04 -2.939266830000000e-03 9.995408609999999e-01 -1.123438740000000e-02
1.162938780000000e+09 9.994887380000000e-01 -8.585566490000000e-03 -1.305793400000000e-04 -2.984137300000000e-03 -1.305793400000000e-04 -2.984137300000000e-03 9.995267550000000e-01 -1.155523150000000e-02
1.179102040000000e+09 9.994648980000000e-01 -8.911681930000000e-03 -1.397335180000000e-04 -3.032581650000000e-03 -1.397335180000000e-04 -3.032581650000000e-03 9.995118110000000e-01 -1.187780790000000e-02
1.195265310000000e+09 9.994390450000000e-01 -9.246561390000000e-03 -1.493508950000000e-04 -3.084748310000000e-03 -1.493508950000000e-04 -3.084748310000000e-03 9.994958870000000e-01 -1.220237200000000e-02
1.211428570000000e+09 9.994109090000000e-01 -9.591267390000000e-03 -1.594247210000000e-04 -3.140814090000000e-03 -1.594247210000000e-04 -3.140814090000000e-03 9.994787620000000e-01 -1.252920850000000e-02
1.227591840000000e+09 9.993801530000000e-01 -9.947032160000001e-03 -1.699182760000000e-04 -3.201012160000000e-03 -1.699182760000000e-04 -3.201012160000000e-03 9.994600780000000e-01 -1.285865870000000e-02
1.243755100000000e+09 9.993463379999999e-01 -1.031533160000000e-02 -1.807502710000000e-04 -3.265732910000000e-03 -1.807502710000000e-04 -3.265732910000000e-03 9.994391540000001e-01 -1.319122530000000e-02
1.259918370000000e+09 9.993088040000000e-01 -1.069814750000000e-02 -1.919746410000000e-04 -3.336033500000000e-03 -1.919746410000000e-04 -3.336033500000000e-03 9.994140640000000e-01 -1.352819800000000e-02
1.276081630000000e+09 9.992624240000000e-01 -1.109960120000000e-02 -2.131192710000000e-04 -3.414936980000000e-03 -2.131192710000000e-04 -3.414936980000000e-03 9.993612430000000e-01 -1.386805570000000e-02
1.292244900000000e+09 9.992168620000000e-01 -1.150714050000000e-02 -2.126846870000000e-04 -3.480729730000000e-03 -2.126846870000000e-04 -3.480729730000000e-03 9.993552710000000e-01 -1.417639240000000e-02
1.308408160000000e+09 9.991631750000000e-01 -1.194167470000000e-02 -2.186373010000000e-04 -3.575226610000000e-03 -2.186373010000000e-04 -3.575226610000000e-03 9.993211310000000e-01 -1.450514210000000e-02
1.324571430000000e+09 9.991046680000000e-01 -1.239487820000000e-02 -2.351357040000000e-04 -3.683629160000000e-03 -2.351357040000000e-04 -3.683629160000000e-03 9.993052190000000e-01 -1.481459480000000e-02
1.340734690000000e+09 9.990451900000000e-01 -1.287833940000000e-02 -2.687755640000000e-04 -3.790822670000000e-03 -2.687755640000000e-04 -3.790822670000000e-03 9.993189970000000e-01 -1.514800970000000e-02
1.356897960000000e+09 9.989752880000000e-01 -1.340215720000000e-02 -3.018786410000000e-04 -3.891084730000000e-03 -3.018786410000000e-04 -3.891084730000000e-03 9.993212320000000e-01 -1.551297850000000e-02
1.373061220000000e+09 9.988889180000000e-01 -1.396960490000000e-02 -3.302680440000000e-04 -3.995483180000000e-03 -3.302680440000000e-04 -3.995483180000000e-03 9.993067460000000e-01 -1.588519340000000e-02
1.389224490000000e+09 9.987823420000000e-01 -1.458912580000000e-02 -3.574457270000000e-04 -4.108000710000000e-03 -3.574457270000000e-04 -4.108000710000000e-03 9.992841030000000e-01 -1.625890490000000e-02
1.405387760000000e+09 9.986486530000001e-01 -1.527476720000000e-02 -3.854839540000000e-04 -4.229408090000000e-03 -3.854839540000000e-04 -4.229408090000000e-03 9.992572709999999e-01 -1.663495360000000e-02
1.421551020000000e+09 9.984756160000000e-01 -1.604708410000000e-02 -4.154222120000000e-04 -4.360258280000000e-03 -4.154222120000000e-04 -4.360258280000000e-03 9.992275930000000e-01 -1.701459700000000e-02
1.437714290000000e+09 9.982418320000001e-01 -1.693675310000000e-02 -4.481625560000000e-04 -4.501480680000000e-03 -4.481625560000000e-04 -4.501480680000000e-03 9.991955219999999e-01 -1.739873460000000e-02
1.453877550000000e+09 9.979080750000000e-01 -1.799197590000000e-02 -4.851545250000000e-04 -4.654417980000000e-03 -4.851545250000000e-04 -4.654417980000000e-03 9.991613230000000e-01 -1.778804110000000e-02
1.470040820000000e+09 9.973953169999999e-01 -1.929355910000000e-02 -5.292226540000000e-04 -4.820500290000000e-03 -5.292226540000000e-04 -4.820500290000000e-03 9.991252660000000e-01 -1.818321770000000e-02
1.486204080000000e+09 9.965205710000000e-01 -2.098464160000000e-02 -5.857420330000000e-04 -5.000382560000000e-03 -5.857420330000000e-04 -5.000382560000000e-03 9.990875350000000e-01 -1.858517220000000e-02
